# freq, re(lna), im(lna), re(amb), im(amb), re(hot), im(hot), re(open), im(open), re(short), im(short), re(sr_s11), im(sr_s11_, re(sr_s12), im(sr_s12), re(sr_s22_, im(sr_s22)
40.002441 -4.323221e-03 2.263332e-02 -2.393823e-01 -2.367269e-01 -1.313952e-01 -2.844410e-02 -1.191733e+00 -3.556788e-01 5.441351e-01 -2.381919e-01 1.130658e+00 -2.161420e-01 1.040242e-01 -4.682956e-01 -4.813429e-01 1.271080e+00
40.051270 -4.332235e-03 2.265612e-02 -2.368871e-01 -2.341183e-01 -1.297154e-01 -2.838256e-02 -1.194170e+00 -3.323087e-01 5.436821e-01 -2.438305e-01 1.118440e+00 -2.128750e-01 1.126518e-01 -4.652774e-01 -4.789787e-01 1.257239e+00
40.100098 -4.340924e-03 2.267865e-02 -2.343613e-01 -2.314842e-01 -1.280216e-01 -2.831386e-02 -1.196131e+00 -3.090036e-01 5.432452e-01 -2.494373e-01 1.106099e+00 -2.095971e-01 1.213848e-01 -4.622505e-01 -4.765026e-01 1.243260e+00
40.148926 -4.349288e-03 2.270093e-02 -2.318062e-01 -2.288260e-01 -1.263146e-01 -2.823807e-02 -1.197622e+00 -2.857729e-01 5.428247e-01 -2.550184e-01 1.093638e+00 -2.063101e-01 1.302191e-01 -4.592156e-01 -4.739164e-01 1.229150e+00
40.197754 -4.357325e-03 2.272295e-02 -2.292231e-01 -2.261451e-01 -1.245955e-01 -2.815526e-02 -1.198650e+00 -2.626263e-01 5.424211e-01 -2.605797e-01 1.081066e+00 -2.030155e-01 1.391501e-01 -4.561739e-01 -4.712221e-01 1.214916e+00
40.246582 -4.365034e-03 2.274471e-02 -2.266134e-01 -2.234430e-01 -1.228649e-01 -2.806554e-02 -1.199220e+00 -2.395733e-01 5.420340e-01 -2.661270e-01 1.068388e+00 -1.997151e-01 1.481734e-01 -4.531264e-01 -4.684215e-01 1.200564e+00
40.295410 -4.372414e-03 2.276620e-02 -2.239783e-01 -2.207209e-01 -1.211239e-01 -2.796899e-02 -1.199340e+00 -2.166229e-01 5.416632e-01 -2.716661e-01 1.055611e+00 -1.964104e-01 1.572845e-01 -4.500741e-01 -4.655167e-01 1.186104e+00
40.344238 -4.379464e-03 2.278743e-02 -2.213192e-01 -2.179802e-01 -1.193733e-01 -2.786570e-02 -1.199016e+00 -1.937839e-01 5.413079e-01 -2.772029e-01 1.042742e+00 -1.931032e-01 1.664788e-01 -4.470181e-01 -4.625097e-01 1.171541e+00
40.393066 -4.386183e-03 2.280840e-02 -2.186374e-01 -2.152224e-01 -1.176140e-01 -2.775577e-02 -1.198254e+00 -1.710645e-01 5.409670e-01 -2.827432e-01 1.029787e+00 -1.897948e-01 1.757519e-01 -4.439595e-01 -4.594028e-01 1.156884e+00
40.441895 -4.392570e-03 2.282909e-02 -2.159343e-01 -2.124488e-01 -1.158468e-01 -2.763931e-02 -1.197062e+00 -1.484725e-01 5.406392e-01 -2.882926e-01 1.016752e+00 -1.864870e-01 1.850994e-01 -4.408991e-01 -4.561979e-01 1.142139e+00
40.490723 -4.398624e-03 2.284952e-02 -2.132112e-01 -2.096608e-01 -1.140728e-01 -2.751641e-02 -1.195446e+00 -1.260166e-01 5.403228e-01 -2.938565e-01 1.003645e+00 -1.831814e-01 1.945162e-01 -4.378382e-01 -4.528975e-01 1.127314e+00
40.539551 -4.404344e-03 2.286968e-02 -2.104695e-01 -2.068598e-01 -1.122926e-01 -2.738719e-02 -1.193415e+00 -1.037038e-01 5.400158e-01 -2.994406e-01 9.904713e-01 -1.798795e-01 2.039982e-01 -4.347777e-01 -4.495038e-01 1.112416e+00
40.588379 -4.409730e-03 2.288956e-02 -2.077104e-01 -2.040472e-01 -1.105072e-01 -2.725176e-02 -1.190973e+00 -8.154105e-02 5.397159e-01 -3.050501e-01 9.772375e-01 -1.765828e-01 2.135406e-01 -4.317186e-01 -4.460192e-01 1.097452e+00
40.637207 -4.414781e-03 2.290918e-02 -2.049355e-01 -2.012242e-01 -1.087175e-01 -2.711023e-02 -1.188131e+00 -5.953532e-02 5.394205e-01 -3.106904e-01 9.639502e-01 -1.732928e-01 2.231390e-01 -4.286620e-01 -4.424460e-01 1.082430e+00
40.686035 -4.419495e-03 2.292852e-02 -2.021458e-01 -1.983923e-01 -1.069242e-01 -2.696272e-02 -1.184893e+00 -3.769307e-02 5.391268e-01 -3.163664e-01 9.506157e-01 -1.700110e-01 2.327887e-01 -4.256089e-01 -4.387866e-01 1.067357e+00
40.734863 -4.423874e-03 2.294759e-02 -1.993429e-01 -1.955528e-01 -1.051283e-01 -2.680936e-02 -1.181268e+00 -1.602048e-02 5.388317e-01 -3.220831e-01 9.372403e-01 -1.667389e-01 2.424853e-01 -4.225603e-01 -4.350435e-01 1.052240e+00
40.783691 -4.427915e-03 2.296638e-02 -1.965281e-01 -1.927070e-01 -1.033305e-01 -2.665025e-02 -1.177264e+00 5.476558e-03 5.385317e-01 -3.278452e-01 9.238303e-01 -1.634778e-01 2.522242e-01 -4.195171e-01 -4.312193e-01 1.037085e+00
40.832520 -4.431619e-03 2.298490e-02 -1.937025e-01 -1.898562e-01 -1.015318e-01 -2.648554e-02 -1.172887e+00 2.679290e-02 5.382233e-01 -3.336575e-01 9.103917e-01 -1.602293e-01 2.620011e-01 -4.164803e-01 -4.273164e-01 1.021900e+00
40.881348 -4.434984e-03 2.300314e-02 -1.908676e-01 -1.870018e-01 -9.973281e-02 -2.631535e-02 -1.168145e+00 4.792239e-02 5.379025e-01 -3.395240e-01 8.969313e-01 -1.569946e-01 2.718110e-01 -4.134510e-01 -4.233374e-01 1.006693e+00
40.930176 -4.438011e-03 2.302110e-02 -1.880247e-01 -1.841450e-01 -9.793449e-02 -2.613981e-02 -1.163046e+00 6.886047e-02 5.375651e-01 -3.454491e-01 8.834548e-01 -1.537753e-01 2.816498e-01 -4.104301e-01 -4.192850e-01 9.914688e-01
40.979004 -4.440699e-03 2.303878e-02 -1.851751e-01 -1.812872e-01 -9.613758e-02 -2.595905e-02 -1.157596e+00 8.960242e-02 5.372068e-01 -3.514367e-01 8.699683e-01 -1.505725e-01 2.915129e-01 -4.074185e-01 -4.151618e-01 9.762355e-01
41.027832 -4.443048e-03 2.305619e-02 -1.823200e-01 -1.784296e-01 -9.434287e-02 -2.577321e-02 -1.151804e+00 1.101438e-01 5.368231e-01 -3.574905e-01 8.564779e-01 -1.473876e-01 3.013959e-01 -4.044172e-01 -4.109704e-01 9.609995e-01
41.076660 -4.445058e-03 2.307331e-02 -1.794608e-01 -1.755734e-01 -9.255114e-02 -2.558243e-02 -1.145676e+00 1.304805e-01 5.364091e-01 -3.636139e-01 8.429895e-01 -1.442218e-01 3.112945e-01 -4.014272e-01 -4.067136e-01 9.457675e-01
41.125488 -4.446728e-03 2.309015e-02 -1.765986e-01 -1.727199e-01 -9.076314e-02 -2.538685e-02 -1.139220e+00 1.506086e-01 5.359598e-01 -3.698103e-01 8.295089e-01 -1.410764e-01 3.212043e-01 -3.984492e-01 -4.023939e-01 9.305460e-01
41.174316 -4.448058e-03 2.310671e-02 -1.737348e-01 -1.698703e-01 -8.897963e-02 -2.518660e-02 -1.132442e+00 1.705244e-01 5.354701e-01 -3.760827e-01 8.160419e-01 -1.379526e-01 3.311210e-01 -3.954844e-01 -3.980142e-01 9.153416e-01
41.223145 -4.449048e-03 2.312299e-02 -1.708705e-01 -1.670257e-01 -8.720131e-02 -2.498182e-02 -1.125351e+00 1.902250e-01 5.349346e-01 -3.824338e-01 8.025939e-01 -1.348515e-01 3.410405e-01 -3.925334e-01 -3.935771e-01 9.001604e-01
41.271973 -4.449698e-03 2.313898e-02 -1.680071e-01 -1.641874e-01 -8.542897e-02 -2.477267e-02 -1.117954e+00 2.097063e-01 5.343479e-01 -3.888658e-01 7.891710e-01 -1.317744e-01 3.509582e-01 -3.895973e-01 -3.890855e-01 8.850092e-01
41.320801 -4.450009e-03 2.315469e-02 -1.651458e-01 -1.613566e-01 -8.366328e-02 -2.455929e-02 -1.110256e+00 2.289659e-01 5.337043e-01 -3.953812e-01 7.757786e-01 -1.287222e-01 3.608701e-01 -3.866769e-01 -3.845421e-01 8.698939e-01
41.369629 -4.449979e-03 2.317011e-02 -1.622876e-01 -1.585343e-01 -8.190494e-02 -2.434182e-02 -1.102266e+00 2.480011e-01 5.329981e-01 -4.019817e-01 7.624221e-01 -1.256962e-01 3.707721e-01 -3.837730e-01 -3.799497e-01 8.548207e-01
41.418457 -4.449610e-03 2.318525e-02 -1.594338e-01 -1.557218e-01 -8.015463e-02 -2.412042e-02 -1.093989e+00 2.668094e-01 5.322233e-01 -4.086691e-01 7.491066e-01 -1.226973e-01 3.806601e-01 -3.808865e-01 -3.753110e-01 8.397955e-01
41.467285 -4.448900e-03 2.320010e-02 -1.565856e-01 -1.529200e-01 -7.841302e-02 -2.389523e-02 -1.085433e+00 2.853885e-01 5.313741e-01 -4.154445e-01 7.358376e-01 -1.197265e-01 3.905301e-01 -3.780182e-01 -3.706288e-01 8.248242e-01
41.516113 -4.447852e-03 2.321467e-02 -1.537440e-01 -1.501301e-01 -7.668075e-02 -2.366639e-02 -1.076604e+00 3.037362e-01 5.304442e-01 -4.223091e-01 7.226201e-01 -1.167848e-01 4.003782e-01 -3.751688e-01 -3.659059e-01 8.099126e-01
41.564941 -4.446464e-03 2.322895e-02 -1.509103e-01 -1.473531e-01 -7.495846e-02 -2.343407e-02 -1.067509e+00 3.218508e-01 5.294276e-01 -4.292636e-01 7.094591e-01 -1.138732e-01 4.102004e-01 -3.723392e-01 -3.611450e-01 7.950662e-01
41.613770 -4.444738e-03 2.324294e-02 -1.480854e-01 -1.445900e-01 -7.324672e-02 -2.319840e-02 -1.058154e+00 3.397308e-01 5.283181e-01 -4.363085e-01 6.963594e-01 -1.109924e-01 4.199931e-01 -3.695301e-01 -3.563489e-01 7.802904e-01
41.662598 -4.442672e-03 2.325664e-02 -1.452706e-01 -1.418419e-01 -7.154622e-02 -2.295955e-02 -1.048545e+00 3.573740e-01 5.271093e-01 -4.434436e-01 6.833261e-01 -1.081435e-01 4.297521e-01 -3.667423e-01 -3.515205e-01 7.655911e-01
41.711426 -4.440269e-03 2.327006e-02 -1.424669e-01 -1.391097e-01 -6.985751e-02 -2.271766e-02 -1.038689e+00 3.747793e-01 5.257951e-01 -4.506690e-01 6.703637e-01 -1.053273e-01 4.394740e-01 -3.639765e-01 -3.466625e-01 7.509733e-01
41.760254 -4.437528e-03 2.328319e-02 -1.396753e-01 -1.363944e-01 -6.818114e-02 -2.247288e-02 -1.028591e+00 3.919454e-01 5.243690e-01 -4.579840e-01 6.574769e-01 -1.025444e-01 4.491551e-01 -3.612335e-01 -3.417776e-01 7.364420e-01
41.809082 -4.434450e-03 2.329602e-02 -1.368967e-01 -1.336969e-01 -6.651767e-02 -2.222537e-02 -1.018257e+00 4.088713e-01 5.228247e-01 -4.653881e-01 6.446701e-01 -9.979570e-02 4.587918e-01 -3.585138e-01 -3.368685e-01 7.220024e-01
41.857910 -4.431036e-03 2.330857e-02 -1.341324e-01 -1.310182e-01 -6.486764e-02 -2.197528e-02 -1.007693e+00 4.255559e-01 5.211561e-01 -4.728799e-01 6.319475e-01 -9.708189e-02 4.683807e-01 -3.558182e-01 -3.319379e-01 7.076593e-01
41.906738 -4.427286e-03 2.332083e-02 -1.313831e-01 -1.283590e-01 -6.323155e-02 -2.172276e-02 -9.969050e-01 4.419983e-01 5.193566e-01 -4.804581e-01 6.193135e-01 -9.440365e-02 4.779184e-01 -3.531474e-01 -3.269887e-01 6.934174e-01
41.955566 -4.423200e-03 2.333280e-02 -1.286498e-01 -1.257203e-01 -6.160992e-02 -2.146795e-02 -9.858975e-01 4.581979e-01 5.174202e-01 -4.881210e-01 6.067721e-01 -9.176160e-02 4.874016e-01 -3.505019e-01 -3.220233e-01 6.792813e-01
42.004395 -4.418780e-03 2.334448e-02 -1.259335e-01 -1.231028e-01 -6.000318e-02 -2.121102e-02 -9.746759e-01 4.741543e-01 5.153405e-01 -4.958666e-01 5.943271e-01 -8.915632e-02 4.968271e-01 -3.478823e-01 -3.170444e-01 6.652552e-01
42.053223 -4.414026e-03 2.335587e-02 -1.232352e-01 -1.205074e-01 -5.841186e-02 -2.095210e-02 -9.632460e-01 4.898662e-01 5.131115e-01 -5.036925e-01 5.819827e-01 -8.658846e-02 5.061914e-01 -3.452894e-01 -3.120549e-01 6.513440e-01
42.102051 -4.408940e-03 2.336696e-02 -1.205556e-01 -1.179349e-01 -5.683638e-02 -2.069136e-02 -9.516125e-01 5.053335e-01 5.107270e-01 -5.115961e-01 5.697424e-01 -8.405851e-02 5.154917e-01 -3.427235e-01 -3.070572e-01 6.375516e-01
42.150879 -4.403521e-03 2.337777e-02 -1.178956e-01 -1.153860e-01 -5.527717e-02 -2.042893e-02 -9.397803e-01 5.205557e-01 5.081811e-01 -5.195744e-01 5.576099e-01 -8.156697e-02 5.247250e-01 -3.401854e-01 -3.020539e-01 6.238819e-01
42.199707 -4.397771e-03 2.338829e-02 -1.152560e-01 -1.128613e-01 -5.373462e-02 -2.016497e-02 -9.277541e-01 5.355326e-01 5.054680e-01 -5.276244e-01 5.455886e-01 -7.911429e-02 5.338883e-01 -3.376755e-01 -2.970475e-01 6.103389e-01
42.248535 -4.391691e-03 2.339851e-02 -1.126377e-01 -1.103617e-01 -5.220913e-02 -1.989963e-02 -9.155385e-01 5.502638e-01 5.025817e-01 -5.357425e-01 5.336818e-01 -7.670089e-02 5.429788e-01 -3.351943e-01 -2.920406e-01 5.969263e-01
42.297363 -4.385282e-03 2.340845e-02 -1.100414e-01 -1.078877e-01 -5.070107e-02 -1.963304e-02 -9.031381e-01 5.647490e-01 4.995168e-01 -5.439249e-01 5.218928e-01 -7.432715e-02 5.519938e-01 -3.327422e-01 -2.870356e-01 5.836477e-01
42.346191 -4.378545e-03 2.341809e-02 -1.074679e-01 -1.054400e-01 -4.921079e-02 -1.936535e-02 -8.905572e-01 5.789880e-01 4.962676e-01 -5.521677e-01 5.102245e-01 -7.199344e-02 5.609306e-01 -3.303199e-01 -2.820351e-01 5.705065e-01
42.395020 -4.371482e-03 2.342744e-02 -1.049178e-01 -1.030191e-01 -4.773860e-02 -1.909671e-02 -8.777998e-01 5.929810e-01 4.928288e-01 -5.604666e-01 4.986797e-01 -6.970000e-02 5.697869e-01 -3.279276e-01 -2.770412e-01 5.575058e-01
42.443848 -4.364092e-03 2.343651e-02 -1.023920e-01 -1.006257e-01 -4.628487e-02 -1.882725e-02 -8.648704e-01 6.067272e-01 4.891953e-01 -5.688168e-01 4.872616e-01 -6.744722e-02 5.785598e-01 -3.255659e-01 -2.720566e-01 5.446491e-01
42.492676 -4.356378e-03 2.344528e-02 -9.989102e-02 -9.826033e-02 -4.484988e-02 -1.855713e-02 -8.517729e-01 6.202268e-01 4.853620e-01 -5.772137e-01 4.759728e-01 -6.523529e-02 5.872471e-01 -3.232352e-01 -2.670835e-01 5.319394e-01
42.541504 -4.348341e-03 2.345376e-02 -9.741556e-02 -9.592348e-02 -4.343389e-02 -1.828647e-02 -8.385112e-01 6.334796e-01 4.813241e-01 -5.856522e-01 4.648156e-01 -6.306442e-02 5.958465e-01 -3.209357e-01 -2.621241e-01 5.193793e-01
42.590332 -4.339982e-03 2.346195e-02 -9.496624e-02 -9.361565e-02 -4.203718e-02 -1.801542e-02 -8.250888e-01 6.464855e-01 4.770768e-01 -5.941270e-01 4.537926e-01 -6.093478e-02 6.043559e-01 -3.186679e-01 -2.571808e-01 5.069716e-01
42.639160 -4.331303e-03 2.346985e-02 -9.254363e-02 -9.133729e-02 -4.065999e-02 -1.774410e-02 -8.115096e-01 6.592444e-01 4.726158e-01 -6.026326e-01 4.429061e-01 -5.884651e-02 6.127732e-01 -3.164321e-01 -2.522557e-01 4.947189e-01
42.687988 -4.322304e-03 2.347746e-02 -9.014829e-02 -8.908885e-02 -3.930253e-02 -1.747266e-02 -7.977771e-01 6.717562e-01 4.679369e-01 -6.111632e-01 4.321580e-01 -5.679972e-02 6.210963e-01 -3.142287e-01 -2.473510e-01 4.826234e-01
42.736816 -4.312988e-03 2.348478e-02 -8.778077e-02 -8.687072e-02 -3.796502e-02 -1.720122e-02 -7.838947e-01 6.840206e-01 4.630359e-01 -6.197131e-01 4.215506e-01 -5.479449e-02 6.293233e-01 -3.120578e-01 -2.424687e-01 4.706876e-01
42.785645 -4.303355e-03 2.349181e-02 -8.544153e-02 -8.468324e-02 -3.664763e-02 -1.692990e-02 -7.698656e-01 6.960378e-01 4.579090e-01 -6.282760e-01 4.110853e-01 -5.283081e-02 6.374527e-01 -3.099197e-01 -2.376109e-01 4.589132e-01
42.834473 -4.293409e-03 2.349855e-02 -8.313113e-02 -8.252685e-02 -3.535057e-02 -1.665886e-02 -7.556935e-01 7.078072e-01 4.525528e-01 -6.368455e-01 4.007645e-01 -5.090879e-02 6.454822e-01 -3.078148e-01 -2.327797e-01 4.473027e-01
42.883301 -4.283149e-03 2.350501e-02 -8.084999e-02 -8.040183e-02 -3.407398e-02 -1.638820e-02 -7.413813e-01 7.193286e-01 4.469639e-01 -6.454152e-01 3.905894e-01 -4.902835e-02 6.534105e-01 -3.057432e-01 -2.279770e-01 4.358576e-01
42.932129 -4.272578e-03 2.351117e-02 -7.859853e-02 -7.830848e-02 -3.281800e-02 -1.611805e-02 -7.269323e-01 7.306019e-01 4.411393e-01 -6.539784e-01 3.805617e-01 -4.718944e-02 6.612361e-01 -3.037052e-01 -2.232046e-01 4.245796e-01
42.980957 -4.261697e-03 2.351705e-02 -7.637716e-02 -7.624707e-02 -3.158273e-02 -1.584853e-02 -7.123494e-01 7.416269e-01 4.350761e-01 -6.625282e-01 3.706827e-01 -4.539199e-02 6.689574e-01 -3.017009e-01 -2.184645e-01 4.134702e-01
43.029785 -4.250509e-03 2.352263e-02 -7.418624e-02 -7.421783e-02 -3.036830e-02 -1.557976e-02 -6.976356e-01 7.524031e-01 4.287717e-01 -6.710578e-01 3.609536e-01 -4.363589e-02 6.765732e-01 -2.997305e-01 -2.137584e-01 4.025309e-01
43.078613 -4.239014e-03 2.352794e-02 -7.202612e-02 -7.222098e-02 -2.917479e-02 -1.531185e-02 -6.827938e-01 7.629302e-01 4.222239e-01 -6.795600e-01 3.513755e-01 -4.192100e-02 6.840822e-01 -2.977942e-01 -2.090881e-01 3.917628e-01
43.127441 -4.227215e-03 2.353295e-02 -6.989713e-02 -7.025672e-02 -2.800226e-02 -1.504492e-02 -6.678270e-01 7.732078e-01 4.154306e-01 -6.880275e-01 3.419494e-01 -4.024715e-02 6.914831e-01 -2.958920e-01 -2.044553e-01 3.811671e-01
43.176270 -4.215114e-03 2.353768e-02 -6.779950e-02 -6.832517e-02 -2.685076e-02 -1.477907e-02 -6.527376e-01 7.832356e-01 4.083900e-01 -6.964532e-01 3.326761e-01 -3.861411e-02 6.987752e-01 -2.940240e-01 -1.998614e-01 3.707445e-01
43.225098 -4.202712e-03 2.354212e-02 -6.573361e-02 -6.642655e-02 -2.572036e-02 -1.451443e-02 -6.375290e-01 7.930128e-01 4.011009e-01 -7.048294e-01 3.235566e-01 -3.702174e-02 7.059571e-01 -2.921903e-01 -1.953083e-01 3.604962e-01
43.273926 -4.190012e-03 2.354627e-02 -6.369963e-02 -6.456093e-02 -2.461107e-02 -1.425109e-02 -6.222037e-01 8.025390e-01 3.935620e-01 -7.131486e-01 3.145914e-01 -3.546975e-02 7.130280e-01 -2.903911e-01 -1.907973e-01 3.504228e-01
43.322754 -4.177016e-03 2.355015e-02 -6.169780e-02 -6.272840e-02 -2.352290e-02 -1.398916e-02 -6.067644e-01 8.118136e-01 3.857722e-01 -7.214032e-01 3.057810e-01 -3.395787e-02 7.199872e-01 -2.886262e-01 -1.863300e-01 3.405248e-01
43.371582 -4.163724e-03 2.355373e-02 -5.972830e-02 -6.092903e-02 -2.245584e-02 -1.372873e-02 -5.912138e-01 8.208359e-01 3.777312e-01 -7.295856e-01 2.971258e-01 -3.248582e-02 7.268340e-01 -2.868959e-01 -1.819077e-01 3.308026e-01
43.420410 -4.150141e-03 2.355704e-02 -5.779129e-02 -5.916286e-02 -2.140987e-02 -1.346991e-02 -5.755545e-01 8.296053e-01 3.694384e-01 -7.376880e-01 2.886261e-01 -3.105328e-02 7.335676e-01 -2.852000e-01 -1.775318e-01 3.212566e-01
43.469238 -4.136267e-03 2.356006e-02 -5.588692e-02 -5.742990e-02 -2.038496e-02 -1.321279e-02 -5.597892e-01 8.381210e-01 3.608939e-01 -7.457027e-01 2.802822e-01 -2.965989e-02 7.401877e-01 -2.835385e-01 -1.732036e-01 3.118869e-01
43.518066 -4.122106e-03 2.356280e-02 -5.401530e-02 -5.573016e-02 -1.938107e-02 -1.295747e-02 -5.439207e-01 8.463822e-01 3.520979e-01 -7.536219e-01 2.720939e-01 -2.830532e-02 7.466936e-01 -2.819114e-01 -1.689242e-01 3.026937e-01
43.566895 -4.107658e-03 2.356525e-02 -5.217649e-02 -5.406357e-02 -1.839810e-02 -1.270402e-02 -5.279511e-01 8.543882e-01 3.430508e-01 -7.614378e-01 2.640613e-01 -2.698913e-02 7.530853e-01 -2.803186e-01 -1.646948e-01 2.936765e-01
43.615723 -4.092926e-03 2.356743e-02 -5.037064e-02 -5.243015e-02 -1.743602e-02 -1.245254e-02 -5.118839e-01 8.621377e-01 3.337538e-01 -7.691424e-01 2.561844e-01 -2.571100e-02 7.593621e-01 -2.787601e-01 -1.605166e-01 2.848358e-01
43.664551 -4.077914e-03 2.356933e-02 -4.859774e-02 -5.082980e-02 -1.649473e-02 -1.220311e-02 -4.957214e-01 8.696300e-01 3.242078e-01 -7.767280e-01 2.484628e-01 -2.447047e-02 7.655239e-01 -2.772358e-01 -1.563907e-01 2.761709e-01
43.713379 -4.062622e-03 2.357094e-02 -4.685783e-02 -4.926243e-02 -1.557413e-02 -1.195582e-02 -4.794663e-01 8.768641e-01 3.144143e-01 -7.841867e-01 2.408963e-01 -2.326709e-02 7.715707e-01 -2.757455e-01 -1.523179e-01 2.676814e-01
43.762207 -4.047053e-03 2.357228e-02 -4.515091e-02 -4.772792e-02 -1.467410e-02 -1.171074e-02 -4.631213e-01 8.838389e-01 3.043749e-01 -7.915108e-01 2.334843e-01 -2.210042e-02 7.775023e-01 -2.742892e-01 -1.482993e-01 2.593669e-01
43.811035 -4.031211e-03 2.357334e-02 -4.347695e-02 -4.622614e-02 -1.379452e-02 -1.146795e-02 -4.466891e-01 8.905534e-01 2.940917e-01 -7.986925e-01 2.262264e-01 -2.096999e-02 7.833188e-01 -2.728667e-01 -1.443357e-01 2.512268e-01
43.859863 -4.015096e-03 2.357412e-02 -4.183591e-02 -4.475694e-02 -1.293526e-02 -1.122751e-02 -4.301725e-01 8.970064e-01 2.835668e-01 -8.057241e-01 2.191219e-01 -1.987529e-02 7.890203e-01 -2.714779e-01 -1.404279e-01 2.432602e-01
43.908691 -3.998712e-03 2.357463e-02 -4.022773e-02 -4.332017e-02 -1.209616e-02 -1.098950e-02 -4.135743e-01 9.031968e-01 2.728028e-01 -8.125981e-01 2.121702e-01 -1.881583e-02 7.946071e-01 -2.701225e-01 -1.365768e-01 2.354665e-01
43.957520 -3.982061e-03 2.357486e-02 -3.865229e-02 -4.191558e-02 -1.127707e-02 -1.075398e-02 -3.968971e-01 9.091234e-01 2.618024e-01 -8.193068e-01 2.053702e-01 -1.779107e-02 8.000793e-01 -2.688004e-01 -1.327828e-01 2.278445e-01
44.006348 -3.965146e-03 2.357482e-02 -3.710955e-02 -4.054305e-02 -1.047783e-02 -1.052102e-02 -3.801443e-01 9.147849e-01 2.505690e-01 -8.258427e-01 1.987214e-01 -1.680052e-02 8.054372e-01 -2.675114e-01 -1.290469e-01 2.203934e-01
44.055176 -3.947969e-03 2.357451e-02 -3.559937e-02 -3.920233e-02 -9.698266e-03 -1.029068e-02 -3.633186e-01 9.201800e-01 2.391058e-01 -8.321983e-01 1.922227e-01 -1.584361e-02 8.106813e-01 -2.662552e-01 -1.253694e-01 2.131121e-01
44.104004 -3.930533e-03 2.357392e-02 -3.412158e-02 -3.789316e-02 -8.938184e-03 -1.006301e-02 -3.464229e-01 9.253075e-01 2.274165e-01 -8.383665e-01 1.858730e-01 -1.491979e-02 8.158120e-01 -2.650317e-01 -1.217511e-01 2.059994e-01
44.152832 -3.912840e-03 2.357306e-02 -3.267604e-02 -3.661530e-02 -8.197390e-03 -9.838069e-03 -3.294604e-01 9.301661e-01 2.155047e-01 -8.443399e-01 1.796712e-01 -1.402850e-02 8.208297e-01 -2.638406e-01 -1.181923e-01 1.990539e-01
