# freq ant_s11_real ant_s11_imag
50.0122  0.343238 0.112015
50.061  0.342727 0.1076
50.1099  0.342171 0.103208
50.1587  0.34157 0.098839
50.2075  0.340924 0.094494
50.2563  0.340233 0.0901733
50.3052  0.339499 0.0858773
50.354  0.338722 0.0816063
50.4028  0.337902 0.0773609
50.4517  0.337039 0.0731413
50.5005  0.336135 0.068948
50.5493  0.33519 0.0647813
50.5981  0.334203 0.0606414
50.647  0.333177 0.056529
50.6958  0.33211 0.0524442
50.7446  0.331005 0.0483873
50.7935  0.32986 0.0443588
50.8423  0.328677 0.0403589
50.8911  0.327456 0.0363879
50.9399  0.326198 0.0324461
50.9888  0.324903 0.0285338
51.0376  0.323572 0.0246513
51.0864  0.322205 0.0207988
51.1353  0.320803 0.0169767
51.1841  0.319366 0.0131851
51.2329  0.317894 0.00942439
51.2817  0.316389 0.00569472
51.3306  0.31485 0.00199633
51.3794  0.313279 -0.00167062
51.4282  0.311675 -0.00530576
51.4771  0.31004 -0.00890896
51.5259  0.308373 -0.01248
51.5747  0.306676 -0.0160188
51.6235  0.304948 -0.019525
51.6724  0.30319 -0.0229985
51.7212  0.301403 -0.0264391
51.77  0.299587 -0.0298468
51.8188  0.297743 -0.0332212
51.8677  0.295871 -0.0365623
51.9165  0.293972 -0.0398699
51.9653  0.292046 -0.0431438
52.0142  0.290093 -0.046384
52.063  0.288115 -0.0495903
52.1118  0.286111 -0.0527627
52.1606  0.284083 -0.0559009
52.2095  0.28203 -0.059005
52.2583  0.279953 -0.0620746
52.3071  0.277852 -0.0651099
52.356  0.275729 -0.0681108
52.4048  0.273583 -0.071077
52.4536  0.271415 -0.0740086
52.5024  0.269226 -0.0769055
52.5513  0.267015 -0.0797677
52.6001  0.264784 -0.082595
52.6489  0.262532 -0.0853874
52.6978  0.260261 -0.0881449
52.7466  0.257971 -0.0908674
52.7954  0.255662 -0.093555
52.8442  0.253334 -0.0962075
52.8931  0.250989 -0.098825
52.9419  0.248626 -0.101407
52.9907  0.246246 -0.103955
53.0396  0.24385 -0.106467
53.0884  0.241438 -0.108944
53.1372  0.23901 -0.111386
53.186  0.236566 -0.113793
53.2349  0.234108 -0.116165
53.2837  0.231636 -0.118502
53.3325  0.229149 -0.120804
53.3813  0.226649 -0.123071
53.4302  0.224136 -0.125302
53.479  0.22161 -0.127499
53.5278  0.219072 -0.129661
53.5767  0.216522 -0.131788
53.6255  0.213961 -0.133881
53.6743  0.211389 -0.135938
53.7231  0.208806 -0.137961
53.772  0.206212 -0.139949
53.8208  0.203609 -0.141903
53.8696  0.200997 -0.143822
53.9185  0.198375 -0.145707
53.9673  0.195745 -0.147557
54.0161  0.193106 -0.149373
54.0649  0.19046 -0.151154
54.1138  0.187806 -0.152902
54.1626  0.185145 -0.154616
54.2114  0.182477 -0.156295
54.2603  0.179802 -0.157941
54.3091  0.177122 -0.159553
54.3579  0.174436 -0.161131
54.4067  0.171744 -0.162676
54.4556  0.169048 -0.164187
54.5044  0.166347 -0.165665
54.5532  0.163642 -0.167109
54.6021  0.160932 -0.168521
54.6509  0.158219 -0.169899
54.6997  0.155503 -0.171245
54.7485  0.152784 -0.172558
54.7974  0.150063 -0.173838
54.8462  0.147339 -0.175086
54.895  0.144613 -0.176301
54.9438  0.141886 -0.177484
54.9927  0.139157 -0.178635
55.0415  0.136427 -0.179754
55.0903  0.133697 -0.180842
55.1392  0.130966 -0.181897
55.188  0.128235 -0.182921
55.2368  0.125505 -0.183914
55.2856  0.122775 -0.184875
55.3345  0.120046 -0.185805
55.3833  0.117318 -0.186705
55.4321  0.114591 -0.187573
55.481  0.111866 -0.188411
55.5298  0.109143 -0.189219
55.5786  0.106423 -0.189996
55.6274  0.103705 -0.190743
55.6763  0.100989 -0.19146
55.7251  0.0982772 -0.192147
55.7739  0.0955684 -0.192804
55.8228  0.0928632 -0.193432
55.8716  0.0901619 -0.194031
55.9204  0.0874647 -0.194601
55.9692  0.0847719 -0.195141
56.0181  0.0820837 -0.195653
56.0669  0.0794004 -0.196136
56.1157  0.0767223 -0.196591
56.1646  0.0740495 -0.197018
56.2134  0.0713824 -0.197416
56.2622  0.068721 -0.197786
56.311  0.0660658 -0.198129
56.3599  0.0634169 -0.198444
56.4087  0.0607745 -0.198732
56.4575  0.0581388 -0.198993
56.5063  0.0555101 -0.199226
56.5552  0.0528886 -0.199433
56.604  0.0502745 -0.199613
56.6528  0.047668 -0.199767
56.7017  0.0450694 -0.199894
56.7505  0.0424787 -0.199996
56.7993  0.0398963 -0.200071
56.8481  0.0373223 -0.200121
56.897  0.034757 -0.200145
56.9458  0.0322004 -0.200144
56.9946  0.0296529 -0.200118
57.0435  0.0271146 -0.200067
57.0923  0.0245856 -0.199992
57.1411  0.0220663 -0.199891
57.1899  0.0195566 -0.199767
57.2388  0.0170568 -0.199618
57.2876  0.0145672 -0.199445
57.3364  0.0120878 -0.199249
57.3853  0.0096189 -0.199029
57.4341  0.00716056 -0.198786
57.4829  0.00471299 -0.198519
57.5317  0.00227633 -0.19823
57.5806  -0.000149247 -0.197917
57.6294  -0.00256364 -0.197582
57.6782  -0.00496659 -0.197225
57.7271  -0.00735801 -0.196846
57.7759  -0.00973775 -0.196444
57.8247  -0.0121057 -0.196021
57.8735  -0.0144616 -0.195577
57.9224  -0.0168054 -0.19511
57.9712  -0.019137 -0.194623
58.02  -0.0214562 -0.194115
58.0688  -0.0237629 -0.193586
58.1177  -0.0260569 -0.193036
58.1665  -0.0283382 -0.192466
58.2153  -0.0306065 -0.191876
58.2642  -0.0328618 -0.191265
58.313  -0.035104 -0.190635
58.3618  -0.0373329 -0.189985
58.4106  -0.0395485 -0.189316
58.4595  -0.0417506 -0.188628
58.5083  -0.043939 -0.18792
58.5571  -0.0461138 -0.187194
58.606  -0.0482747 -0.186449
58.6548  -0.0504217 -0.185686
58.7036  -0.0525546 -0.184905
58.7524  -0.0546735 -0.184105
58.8013  -0.0567781 -0.183288
58.8501  -0.0588684 -0.182453
58.8989  -0.0609443 -0.1816
58.9478  -0.0630056 -0.180731
58.9966  -0.0650524 -0.179844
59.0454  -0.0670845 -0.17894
59.0942  -0.0691018 -0.17802
59.1431  -0.0711042 -0.177083
59.1919  -0.0730918 -0.17613
59.2407  -0.0750643 -0.175161
59.2896  -0.0770217 -0.174176
59.3384  -0.078964 -0.173176
59.3872  -0.080891 -0.172159
59.436  -0.0828026 -0.171128
59.4849  -0.0846989 -0.170081
59.5337  -0.0865798 -0.169019
59.5825  -0.0884451 -0.167943
59.6313  -0.0902949 -0.166852
59.6802  -0.092129 -0.165747
59.729  -0.0939473 -0.164627
59.7778  -0.09575 -0.163494
59.8267  -0.0975368 -0.162346
59.8755  -0.0993077 -0.161186
59.9243  -0.101063 -0.160011
59.9731  -0.102802 -0.158824
60.022  -0.104525 -0.157623
60.0708  -0.106231 -0.156409
60.1196  -0.107922 -0.155183
60.1685  -0.109597 -0.153944
60.2173  -0.111255 -0.152693
60.2661  -0.112897 -0.15143
60.3149  -0.114523 -0.150155
60.3638  -0.116132 -0.148867
60.4126  -0.117726 -0.147569
60.4614  -0.119302 -0.146259
60.5103  -0.120862 -0.144937
60.5591  -0.122406 -0.143605
60.6079  -0.123933 -0.142262
60.6567  -0.125444 -0.140908
60.7056  -0.126938 -0.139543
60.7544  -0.128416 -0.138168
60.8032  -0.129876 -0.136783
60.8521  -0.131321 -0.135388
60.9009  -0.132748 -0.133983
60.9497  -0.134159 -0.132568
60.9985  -0.135553 -0.131144
61.0474  -0.136931 -0.129711
61.0962  -0.138291 -0.128268
61.145  -0.139635 -0.126816
61.1938  -0.140962 -0.125356
61.2427  -0.142273 -0.123887
61.2915  -0.143566 -0.122409
61.3403  -0.144843 -0.120923
61.3892  -0.146103 -0.119429
61.438  -0.147346 -0.117927
61.4868  -0.148573 -0.116417
61.5356  -0.149782 -0.1149
61.5845  -0.150975 -0.113375
61.6333  -0.15215 -0.111843
61.6821  -0.153309 -0.110303
61.731  -0.154451 -0.108757
61.7798  -0.155577 -0.107203
61.8286  -0.156685 -0.105643
61.8774  -0.157777 -0.104077
61.9263  -0.158851 -0.102504
61.9751  -0.159909 -0.100925
62.0239  -0.16095 -0.0993396
62.0728  -0.161975 -0.0977485
62.1216  -0.162982 -0.0961518
62.1704  -0.163973 -0.0945494
62.2192  -0.164946 -0.0929416
62.2681  -0.165904 -0.0913285
62.3169  -0.166844 -0.0897102
62.3657  -0.167767 -0.088087
62.4146  -0.168674 -0.086459
62.4634  -0.169564 -0.0848262
62.5122  -0.170438 -0.083189
62.561  -0.171295 -0.0815474
62.6099  -0.172135 -0.0799015
62.6587  -0.172958 -0.0782516
62.7075  -0.173765 -0.0765977
62.7563  -0.174555 -0.07494
62.8052  -0.175329 -0.0732786
62.854  -0.176086 -0.0716138
62.9028  -0.176826 -0.0699456
62.9517  -0.17755 -0.0682742
63.0005  -0.178258 -0.0665996
63.0493  -0.178949 -0.0649222
63.0981  -0.179623 -0.0632419
63.147  -0.180282 -0.061559
63.1958  -0.180924 -0.0598735
63.2446  -0.181549 -0.0581856
63.2935  -0.182158 -0.0564955
63.3423  -0.182751 -0.0548033
63.3911  -0.183328 -0.0531091
63.4399  -0.183889 -0.0514131
63.4888  -0.184433 -0.0497153
63.5376  -0.184961 -0.0480159
63.5864  -0.185473 -0.0463151
63.6353  -0.185969 -0.0446129
63.6841  -0.186449 -0.0429096
63.7329  -0.186913 -0.0412052
63.7817  -0.187361 -0.0394999
63.8306  -0.187794 -0.0377938
63.8794  -0.18821 -0.0360869
63.9282  -0.18861 -0.0343795
63.9771  -0.188995 -0.0326717
64.0259  -0.189364 -0.0309636
64.0747  -0.189717 -0.0292554
64.1235  -0.190055 -0.027547
64.1724  -0.190376 -0.0258387
64.2212  -0.190683 -0.0241306
64.27  -0.190974 -0.0224228
64.3188  -0.191249 -0.0207154
64.3677  -0.191509 -0.0190086
64.4165  -0.191753 -0.0173024
64.4653  -0.191983 -0.015597
64.5142  -0.192197 -0.0138926
64.563  -0.192395 -0.0121891
64.6118  -0.192579 -0.0104867
64.6606  -0.192747 -0.00878559
64.7095  -0.1929 -0.00708583
64.7583  -0.193039 -0.00538754
64.8071  -0.193162 -0.00369084
64.856  -0.19327 -0.00199582
64.9048  -0.193364 -0.000302599
64.9536  -0.193442 0.00138871
65.0024  -0.193506 0.003078
65.0513  -0.193555 0.00476519
65.1001  -0.19359 0.00645012
65.1489  -0.193609 0.0081327
65.1978  -0.193615 0.00981284
65.2466  -0.193606 0.0114904
65.2954  -0.193582 0.0131654
65.3442  -0.193544 0.0148375
65.3931  -0.193492 0.0165068
65.4419  -0.193425 0.0181732
65.4907  -0.193344 0.0198365
65.5396  -0.193249 0.0214966
65.5884  -0.19314 0.0231534
65.6372  -0.193017 0.0248069
65.686  -0.19288 0.0264569
65.7349  -0.19273 0.0281034
65.7837  -0.192565 0.0297461
65.8325  -0.192387 0.0313852
65.8813  -0.192194 0.0330204
65.9302  -0.191989 0.0346516
65.979  -0.191769 0.0362788
66.0278  -0.191536 0.0379019
66.0767  -0.19129 0.0395208
66.1255  -0.19103 0.0411353
66.1743  -0.190757 0.0427454
66.2231  -0.190471 0.0443511
66.272  -0.190171 0.0459521
66.3208  -0.189859 0.0475485
66.3696  -0.189533 0.0491401
66.4185  -0.189194 0.0507268
66.4673  -0.188843 0.0523087
66.5161  -0.188478 0.0538855
66.5649  -0.188101 0.0554571
66.6138  -0.187711 0.0570237
66.6626  -0.187308 0.0585849
66.7114  -0.186893 0.0601408
66.7603  -0.186465 0.0616912
66.8091  -0.186025 0.0632361
66.8579  -0.185573 0.0647754
66.9067  -0.185108 0.066309
66.9556  -0.184631 0.0678368
67.0044  -0.184142 0.0693589
67.0532  -0.18364 0.070875
67.1021  -0.183127 0.0723851
67.1509  -0.182602 0.0738891
67.1997  -0.182064 0.0753869
67.2485  -0.181515 0.0768786
67.2974  -0.180955 0.0783639
67.3462  -0.180382 0.0798429
67.395  -0.179798 0.0813155
67.4438  -0.179203 0.0827815
67.4927  -0.178596 0.0842409
67.5415  -0.177978 0.0856936
67.5903  -0.177348 0.0871397
67.6392  -0.176707 0.0885789
67.688  -0.176055 0.0900112
67.7368  -0.175392 0.0914367
67.7856  -0.174718 0.0928551
67.8345  -0.174033 0.0942664
67.8833  -0.173338 0.0956706
67.9321  -0.172631 0.0970676
67.981  -0.171914 0.0984573
68.0298  -0.171186 0.0998397
68.0786  -0.170447 0.101215
68.1274  -0.169699 0.102582
68.1763  -0.168939 0.103942
68.2251  -0.16817 0.105295
68.2739  -0.16739 0.106639
68.3228  -0.1666 0.107977
68.3716  -0.1658 0.109306
68.4204  -0.16499 0.110627
68.4692  -0.16417 0.111941
68.5181  -0.16334 0.113247
68.5669  -0.1625 0.114544
68.6157  -0.161651 0.115834
68.6646  -0.160792 0.117115
68.7134  -0.159924 0.118389
68.7622  -0.159046 0.119654
68.811  -0.158158 0.120911
68.8599  -0.157262 0.122159
68.9087  -0.156356 0.123399
68.9575  -0.155441 0.124631
69.0063  -0.154517 0.125854
69.0552  -0.153584 0.127069
69.104  -0.152642 0.128275
69.1528  -0.151691 0.129472
69.2017  -0.150731 0.130661
69.2505  -0.149763 0.131841
69.2993  -0.148786 0.133012
69.3481  -0.147801 0.134175
69.397  -0.146807 0.135328
69.4458  -0.145805 0.136473
69.4946  -0.144795 0.137609
69.5435  -0.143776 0.138735
69.5923  -0.142749 0.139853
69.6411  -0.141715 0.140962
69.6899  -0.140672 0.142061
69.7388  -0.139621 0.143151
69.7876  -0.138563 0.144232
69.8364  -0.137497 0.145304
69.8853  -0.136423 0.146366
69.9341  -0.135342 0.147419
69.9829  -0.134253 0.148463
70.0317  -0.133157 0.149498
70.0806  -0.132054 0.150522
70.1294  -0.130943 0.151538
70.1782  -0.129825 0.152544
70.2271  -0.1287 0.15354
70.2759  -0.127568 0.154527
70.3247  -0.126429 0.155504
70.3735  -0.125284 0.156471
70.4224  -0.124131 0.157429
70.4712  -0.122972 0.158377
70.52  -0.121807 0.159315
70.5688  -0.120635 0.160243
70.6177  -0.119456 0.161162
70.6665  -0.118271 0.16207
70.7153  -0.11708 0.162969
70.7642  -0.115883 0.163858
70.813  -0.114679 0.164737
70.8618  -0.11347 0.165606
70.9106  -0.112254 0.166465
70.9595  -0.111033 0.167314
71.0083  -0.109806 0.168152
71.0571  -0.108573 0.168981
71.106  -0.107335 0.1698
71.1548  -0.106091 0.170608
71.2036  -0.104842 0.171406
71.2524  -0.103587 0.172195
71.3013  -0.102327 0.172973
71.3501  -0.101062 0.17374
71.3989  -0.0997918 0.174498
71.4478  -0.0985164 0.175245
71.4966  -0.0972361 0.175982
71.5454  -0.0959509 0.176708
71.5942  -0.0946609 0.177424
71.6431  -0.0933661 0.17813
71.6919  -0.0920667 0.178826
71.7407  -0.0907627 0.179511
71.7896  -0.0894543 0.180185
71.8384  -0.0881415 0.180849
71.8872  -0.0868243 0.181503
71.936  -0.0855029 0.182146
71.9849  -0.0841773 0.182779
72.0337  -0.0828476 0.183401
72.0825  -0.0815139 0.184013
72.1313  -0.0801763 0.184615
72.1802  -0.0788349 0.185205
72.229  -0.0774897 0.185785
72.2778  -0.0761408 0.186355
72.3267  -0.0747883 0.186914
72.3755  -0.0734323 0.187462
72.4243  -0.0720729 0.188
72.4731  -0.07071 0.188527
72.522  -0.0693439 0.189044
72.5708  -0.0679746 0.18955
72.6196  -0.0666022 0.190045
72.6685  -0.0652267 0.19053
72.7173  -0.0638482 0.191004
72.7661  -0.0624669 0.191467
72.8149  -0.0610827 0.19192
72.8638  -0.0596958 0.192362
72.9126  -0.0583062 0.192793
72.9614  -0.0569141 0.193213
73.0103  -0.0555195 0.193623
73.0591  -0.0541225 0.194022
73.1079  -0.0527231 0.194411
73.1567  -0.0513214 0.194789
73.2056  -0.0499176 0.195156
73.2544  -0.0485116 0.195512
73.3032  -0.0471037 0.195858
73.3521  -0.0456938 0.196192
73.4009  -0.044282 0.196517
73.4497  -0.0428684 0.19683
73.4985  -0.0414531 0.197133
73.5474  -0.0400361 0.197425
73.5962  -0.0386176 0.197706
73.645  -0.0371976 0.197976
73.6938  -0.0357762 0.198236
73.7427  -0.0343534 0.198485
73.7915  -0.0329294 0.198723
73.8403  -0.0315042 0.198951
73.8892  -0.0300779 0.199168
73.938  -0.0286506 0.199374
73.9868  -0.0272223 0.19957
74.0356  -0.0257931 0.199754
74.0845  -0.0243632 0.199929
74.1333  -0.0229325 0.200092
74.1821  -0.0215012 0.200245
74.231  -0.0200692 0.200387
74.2798  -0.0186368 0.200518
74.3286  -0.017204 0.200639
74.3774  -0.0157708 0.200749
74.4263  -0.0143373 0.200848
74.4751  -0.0129036 0.200937
74.5239  -0.0114698 0.201015
74.5728  -0.0100359 0.201083
74.6216  -0.00860209 0.20114
74.6704  -0.00716834 0.201186
74.7192  -0.00573476 0.201222
74.7681  -0.00430141 0.201247
74.8169  -0.00286835 0.201261
74.8657  -0.0014357 0.201265
74.9146  -3.51351e-06 0.201259
74.9634  0.00142814 0.201242
75.0122  0.0028592 0.201214
75.061  0.00428958 0.201176
75.1099  0.00571921 0.201128
75.1587  0.00714802 0.201069
75.2075  0.00857597 0.200999
75.2563  0.0100029 0.200919
75.3052  0.0114289 0.200829
75.354  0.0128537 0.200728
75.4028  0.0142773 0.200617
75.4517  0.0156997 0.200495
75.5005  0.0171208 0.200363
75.5493  0.0185405 0.200221
75.5981  0.0199587 0.200069
75.647  0.0213754 0.199906
75.6958  0.0227905 0.199733
75.7446  0.024204 0.199549
75.7935  0.0256157 0.199356
75.8423  0.0270256 0.199152
75.8911  0.0284336 0.198938
75.9399  0.0298397 0.198713
75.9888  0.0312438 0.198479
76.0376  0.0326458 0.198234
76.0864  0.0340456 0.19798
76.1353  0.0354432 0.197715
76.1841  0.0368386 0.19744
76.2329  0.0382316 0.197155
76.2817  0.0396221 0.19686
76.3306  0.0410102 0.196555
76.3794  0.0423958 0.196241
76.4282  0.0437787 0.195916
76.4771  0.0451589 0.195581
76.5259  0.0465364 0.195236
76.5747  0.047911 0.194882
76.6235  0.0492828 0.194517
76.6724  0.0506517 0.194143
76.7212  0.0520175 0.193759
76.77  0.0533803 0.193365
76.8188  0.0547399 0.192962
76.8677  0.0560962 0.192549
76.9165  0.0574494 0.192126
76.9653  0.0587992 0.191693
77.0142  0.0601456 0.191251
77.063  0.0614885 0.190799
77.1118  0.0628279 0.190338
77.1606  0.0641637 0.189867
77.2095  0.0654959 0.189387
77.2583  0.0668243 0.188897
77.3071  0.068149 0.188398
77.356  0.0694699 0.187889
77.4048  0.0707868 0.187371
77.4536  0.0720998 0.186844
77.5024  0.0734088 0.186307
77.5513  0.0747137 0.185761
77.6001  0.0760144 0.185206
77.6489  0.0773109 0.184641
77.6978  0.0786032 0.184068
77.7466  0.0798912 0.183485
77.7954  0.0811747 0.182893
77.8442  0.0824538 0.182292
77.8931  0.0837285 0.181682
77.9419  0.0849986 0.181063
77.9907  0.086264 0.180435
78.0396  0.0875248 0.179798
78.0884  0.0887808 0.179153
78.1372  0.090032 0.178498
78.186  0.0912784 0.177835
78.2349  0.0925199 0.177163
78.2837  0.0937564 0.176482
78.3325  0.094988 0.175792
78.3813  0.0962144 0.175094
78.4302  0.0974357 0.174387
78.479  0.0986518 0.173671
78.5278  0.0998627 0.172947
78.5767  0.101068 0.172215
78.6255  0.102268 0.171474
78.6743  0.103463 0.170724
78.7231  0.104653 0.169966
78.772  0.105836 0.1692
78.8208  0.107015 0.168426
78.8696  0.108187 0.167643
78.9185  0.109354 0.166852
78.9673  0.110516 0.166053
79.0161  0.111671 0.165246
79.0649  0.112821 0.16443
79.1138  0.113964 0.163607
79.1626  0.115102 0.162775
79.2114  0.116234 0.161936
79.2603  0.11736 0.161089
79.3091  0.118479 0.160234
79.3579  0.119593 0.159371
79.4067  0.1207 0.1585
79.4556  0.121801 0.157621
79.5044  0.122896 0.156735
79.5532  0.123985 0.155841
79.6021  0.125067 0.15494
79.6509  0.126142 0.154031
79.6997  0.127211 0.153114
79.7485  0.128274 0.15219
79.7974  0.12933 0.151259
79.8462  0.13038 0.15032
79.895  0.131422 0.149374
79.9438  0.132458 0.148421
79.9927  0.133488 0.14746
80.0415  0.13451 0.146492
80.0903  0.135526 0.145518
80.1392  0.136534 0.144536
80.188  0.137536 0.143547
80.2368  0.138531 0.142551
80.2856  0.139518 0.141548
80.3345  0.140499 0.140538
80.3833  0.141472 0.139521
80.4321  0.142439 0.138498
80.481  0.143398 0.137468
80.5298  0.14435 0.136431
80.5786  0.145294 0.135387
80.6274  0.146231 0.134337
80.6763  0.147161 0.133281
80.7251  0.148084 0.132218
80.7739  0.148999 0.131148
80.8228  0.149906 0.130072
80.8716  0.150806 0.12899
80.9204  0.151698 0.127902
80.9692  0.152583 0.126807
81.0181  0.15346 0.125706
81.0669  0.154329 0.124599
81.1157  0.155191 0.123486
81.1646  0.156045 0.122367
81.2134  0.156891 0.121242
81.2622  0.157729 0.120111
81.311  0.158559 0.118974
81.3599  0.159381 0.117832
81.4087  0.160196 0.116684
81.4575  0.161002 0.11553
81.5063  0.1618 0.11437
81.5552  0.16259 0.113205
81.604  0.163372 0.112035
81.6528  0.164146 0.110858
81.7017  0.164912 0.109677
81.7505  0.16567 0.10849
81.7993  0.166419 0.107298
81.8481  0.16716 0.106101
81.897  0.167893 0.104898
81.9458  0.168617 0.10369
81.9946  0.169333 0.102478
82.0435  0.170041 0.10126
82.0923  0.17074 0.100037
82.1411  0.171431 0.0988096
82.1899  0.172113 0.0975771
82.2388  0.172786 0.0963399
82.2876  0.173452 0.0950979
82.3364  0.174108 0.0938513
82.3853  0.174756 0.0926001
82.4341  0.175395 0.0913443
82.4829  0.176026 0.0900841
82.5317  0.176647 0.0888194
82.5806  0.177261 0.0875503
82.6294  0.177865 0.0862769
82.6782  0.17846 0.0849992
82.7271  0.179047 0.0837174
82.7759  0.179625 0.0824314
82.8247  0.180194 0.0811414
82.8735  0.180754 0.0798473
82.9224  0.181305 0.0785493
82.9712  0.181847 0.0772473
83.02  0.182381 0.0759415
83.0688  0.182905 0.074632
83.1177  0.18342 0.0733187
83.1665  0.183927 0.0720017
83.2153  0.184424 0.0706812
83.2642  0.184912 0.0693571
83.313  0.185391 0.0680296
83.3618  0.18586 0.0666986
83.4106  0.186321 0.0653642
83.4595  0.186773 0.0640266
83.5083  0.187215 0.0626857
83.5571  0.187648 0.0613417
83.606  0.188072 0.0599945
83.6548  0.188486 0.0586443
83.7036  0.188892 0.0572911
83.7524  0.189288 0.055935
83.8013  0.189674 0.054576
83.8501  0.190052 0.0532142
83.8989  0.19042 0.0518497
83.9478  0.190779 0.0504824
83.9966  0.191128 0.0491126
84.0454  0.191468 0.0477402
84.0942  0.191798 0.0463653
84.1431  0.192119 0.044988
84.1919  0.192431 0.0436083
84.2407  0.192733 0.0422263
84.2896  0.193026 0.040842
84.3384  0.193309 0.0394556
84.3872  0.193583 0.038067
84.436  0.193847 0.0366764
